
**** 11/03/21 14:58:07 ********* PSpice 9.2 (Mar 2000) ******** ID# 1 ********

 ** Profile: "SCHEMATIC1-W"  [ C:\Users\WOLF2022\Desktop\UNI\3_semiterm\MadarElectric\Az\word\6\Wetson\wetson-schematic1-w.sim ] 


 ****     CIRCUIT DESCRIPTION


******************************************************************************




** Creating circuit file "wetson-schematic1-w.sim.cir" 
** WARNING: THIS AUTOMATICALLY GENERATED FILE MAY BE OVERWRITTEN BY SUBSEQUENT SIMULATIONS

*Libraries: 
* Local Libraries :
* From [PSPICE NETLIST] section of C:\Program Files\Orcad\PSpice\PSpice.ini file:
.lib "nom.lib" 

*Analysis directives: 
.PROBE V(*) I(*) W(*) D(*) NOISE(*) 
.INC ".\wetson-SCHEMATIC1.net" 



**** INCLUDING wetson-SCHEMATIC1.net ****
* source WETSON
V_V1         N00442 0 10
R_R5         N00578 N00611  100  
R_R1         N00442 N00578  1k  
R_R2         N00611 N00442  4.7k  
R_R3         0 N00578  5.6k  
R_R4         N00611 0  3.3k  
.PARAM  R_v=1k

**** RESUMING wetson-schematic1-w.sim.cir ****
.END

**** 11/03/21 14:58:07 ********* PSpice 9.2 (Mar 2000) ******** ID# 1 ********

 ** Profile: "SCHEMATIC1-W"  [ C:\Users\WOLF2022\Desktop\UNI\3_semiterm\MadarElectric\Az\word\6\Wetson\wetson-schematic1-w.sim ] 


 ****     SMALL SIGNAL BIAS SOLUTION       TEMPERATURE =   27.000 DEG C


******************************************************************************



 NODE   VOLTAGE     NODE   VOLTAGE     NODE   VOLTAGE     NODE   VOLTAGE


(N00442)   10.0000 (N00578)    7.2036 (N00611)    7.0526 




    VOLTAGE SOURCE CURRENTS
    NAME         CURRENT

    V_V1        -3.424E-03

    TOTAL POWER DISSIPATION   3.42E-02  WATTS



          JOB CONCLUDED

          TOTAL JOB TIME             .05
