
**** 12/15/21 13:06:10 ********* PSpice 9.2 (Mar 2000) ******** ID# 1 ********

 ** Profile: "SCHEMATIC1-SIM"  [ C:\Users\WOLF2022\Desktop\UNI\3_semiterm\MadarElectric\Az\word\12\ps_project\trans-SCHEMATIC1-SIM.si


 ****     CIRCUIT DESCRIPTION


******************************************************************************




** Creating circuit file "trans-SCHEMATIC1-SIM.sim.cir" 
** WARNING: THIS AUTOMATICALLY GENERATED FILE MAY BE OVERWRITTEN BY SUBSEQUENT SIMULATIONS

*Libraries: 
* Local Libraries :
* From [PSPICE NETLIST] section of C:\Program Files\Orcad\PSpice\PSpice.ini file:
.lib "nom.lib" 

*Analysis directives: 
.PROBE V(*) I(*) W(*) D(*) NOISE(*) 
.INC ".\trans-SCHEMATIC1.net" 



**** INCLUDING trans-SCHEMATIC1.net ****
* source TRANS
R_R1         N00420 N00467  4.7k  
Q_Q1         N00522 N00551 0 BC107A 
R_RC         N00522 N00467  1k  
V_VCC         N00467 0 10
R_R2         0 N00420  100  
R_RB         N00551 N00420  1.2  

**** RESUMING trans-SCHEMATIC1-SIM.sim.cir ****
.END

**** 12/15/21 13:06:10 ********* PSpice 9.2 (Mar 2000) ******** ID# 1 ********

 ** Profile: "SCHEMATIC1-SIM"  [ C:\Users\WOLF2022\Desktop\UNI\3_semiterm\MadarElectric\Az\word\12\ps_project\trans-SCHEMATIC1-SIM.si


 ****     BJT MODEL PARAMETERS


******************************************************************************




               BC107A          
               NPN             
          IS    7.049000E-15 
          BF  375.5          
          NF    1            
         VAF  116.3          
         IKF    4.589        
         ISE    7.049000E-15 
          NE    1.281        
          BR    2.611        
          NR    1            
         IKR    5.313        
         ISC  121.700000E-12 
          NC    1.865        
          RC    1.464        
         CJE   11.500000E-12 
         VJE     .5          
         MJE     .2717       
         CJC    5.380000E-12 
         VJC     .6218       
         MJC     .329        
          TF  451.000000E-12 
         XTF   17.43         
         VTF   10            
         ITF    6.194        
          TR   10.000000E-09 
         XTB    1.5          
          CN    2.42         
           D     .87         


**** 12/15/21 13:06:10 ********* PSpice 9.2 (Mar 2000) ******** ID# 1 ********

 ** Profile: "SCHEMATIC1-SIM"  [ C:\Users\WOLF2022\Desktop\UNI\3_semiterm\MadarElectric\Az\word\12\ps_project\trans-SCHEMATIC1-SIM.si


 ****     SMALL SIGNAL BIAS SOLUTION       TEMPERATURE =   27.000 DEG C


******************************************************************************



 NODE   VOLTAGE     NODE   VOLTAGE     NODE   VOLTAGE     NODE   VOLTAGE


(N00420)     .2083 (N00467)   10.0000 (N00522)   10.0000 (N00551)     .2083 




    VOLTAGE SOURCE CURRENTS
    NAME         CURRENT

    V_VCC       -2.083E-03

    TOTAL POWER DISSIPATION   2.08E-02  WATTS



          JOB CONCLUDED

          TOTAL JOB TIME             .17
