
**** 10/26/21 17:36:03 ********* PSpice 9.2 (Mar 2000) ******** ID# 1 ********

 ** Profile: "SCHEMATIC1-MP"  [ C:\Users\WOLF2022\Desktop\UNI\3_semiterm\MadarElectric\Az\word\5\MaxPower\maxpower-schematic1-mp.sim 


 ****     CIRCUIT DESCRIPTION


******************************************************************************




** Creating circuit file "maxpower-schematic1-mp.sim.cir" 
** WARNING: THIS AUTOMATICALLY GENERATED FILE MAY BE OVERWRITTEN BY SUBSEQUENT SIMULATIONS

*Libraries: 
* Local Libraries :
* From [PSPICE NETLIST] section of C:\Program Files\Orcad\PSpice\PSpice.ini file:
.lib "nom.lib" 

*Analysis directives: 
.PROBE V(*) I(*) W(*) D(*) NOISE(*) 
.INC ".\maxpower-SCHEMATIC1.net" 



**** INCLUDING maxpower-SCHEMATIC1.net ****
* source MAXPOWER
V_V1         N00113 0 4.5
R_R5         0 N00799  1k  
R_R1         N00113 N00143  330  
R_R2         N00143 N00170  330  
R_R3         0 N00143  1k  
R_Rl         0 N00170  1k  
V_V2         N00769 0 3.4
R_R4         N00769 N00799  578.12  

**** RESUMING maxpower-schematic1-mp.sim.cir ****
.END

**** 10/26/21 17:36:03 ********* PSpice 9.2 (Mar 2000) ******** ID# 1 ********

 ** Profile: "SCHEMATIC1-MP"  [ C:\Users\WOLF2022\Desktop\UNI\3_semiterm\MadarElectric\Az\word\5\MaxPower\maxpower-schematic1-mp.sim 


 ****     SMALL SIGNAL BIAS SOLUTION       TEMPERATURE =   27.000 DEG C


******************************************************************************



 NODE   VOLTAGE     NODE   VOLTAGE     NODE   VOLTAGE     NODE   VOLTAGE


(N00113)    4.5000 (N00143)    2.8515 (N00170)    2.1440 (N00769)    3.4000     

(N00799)    2.1545 




    VOLTAGE SOURCE CURRENTS
    NAME         CURRENT

    V_V1        -4.995E-03
    V_V2        -2.154E-03

    TOTAL POWER DISSIPATION   2.98E-02  WATTS



          JOB CONCLUDED

          TOTAL JOB TIME             .17
