
**** 11/10/21 15:52:20 ********* PSpice 9.2 (Mar 2000) ******** ID# 1 ********

 ** Profile: "SCHEMATIC1-RL2"  [ C:\Users\WOLF2022\Desktop\UNI\3_semiterm\MadarElectric\Az\word\7\RL\rl-schematic1-rl2.sim ] 


 ****     CIRCUIT DESCRIPTION


******************************************************************************




** Creating circuit file "rl-schematic1-rl2.sim.cir" 
** WARNING: THIS AUTOMATICALLY GENERATED FILE MAY BE OVERWRITTEN BY SUBSEQUENT SIMULATIONS

*Libraries: 
* Local Libraries :
* From [PSPICE NETLIST] section of C:\Program Files\Orcad\PSpice\PSpice.ini file:
.lib "nom.lib" 

*Analysis directives: 
.TRAN  0 2ms 0 1u 
.PROBE V(*) I(*) W(*) D(*) NOISE(*) 
.INC ".\rl-SCHEMATIC1.net" 



**** INCLUDING rl-SCHEMATIC1.net ****
* source RL
L_L1         N00323 0  22mH  
R_R1         N00323 N00269  220  
L_L2         N02027 N02707  22mH IC=0 
V_V1         N00269 0  
+PULSE 0 4 0 1n 1n 0.5m 1m
R_R2         N02707 0  220  
V_V2         N02027 0 4

**** RESUMING rl-schematic1-rl2.sim.cir ****
.END

**** 11/10/21 15:52:20 ********* PSpice 9.2 (Mar 2000) ******** ID# 1 ********

 ** Profile: "SCHEMATIC1-RL2"  [ C:\Users\WOLF2022\Desktop\UNI\3_semiterm\MadarElectric\Az\word\7\RL\rl-schematic1-rl2.sim ] 


 ****     INITIAL TRANSIENT SOLUTION       TEMPERATURE =   27.000 DEG C


******************************************************************************



 NODE   VOLTAGE     NODE   VOLTAGE     NODE   VOLTAGE     NODE   VOLTAGE


(N00269)    0.0000 (N00323)    0.0000 (N02027)    4.0000 (N02707) 880.0E-09 




    VOLTAGE SOURCE CURRENTS
    NAME         CURRENT

    V_V1         0.000E+00
    V_V2        -4.000E-09

    TOTAL POWER DISSIPATION   1.60E-08  WATTS



          JOB CONCLUDED

          TOTAL JOB TIME             .58
